#  HZ   S   DB   R     50.00 
! Rohde & Schwarz ZVB4 2Ports - Version 3.20 - 1145.1010k04 SN: 100175
! Date: 2017-05-11 21:42:19
! Measurement: S11 
! 
 2.000000000000000E9    -2.355740077354139   7.790756238920379E1  
 2.005000000000000E9    -2.333355232702767   7.698893633150104E1  
 2.010000000000000E9    -2.317189127171330   7.600691934167132E1  
 2.015000000000000E9    -2.318666454858240   7.491230682876967E1  
 2.020000000000000E9    -2.324511257746649   7.384928877324273E1  
 2.025000000000000E9    -2.330871362894980   7.274154820034990E1  
 2.030000000000000E9    -2.344311552405479   7.161751185806168E1  
 2.035000000000000E9    -2.355549631495439   7.044729948507538E1  
 2.040000000000000E9    -2.370693183597532   6.917912834244427E1  
 2.045000000000000E9    -2.415572589986923   6.792405937298248E1  
 2.050000000000000E9    -2.450817005783172   6.678383084855399E1  
 2.055000000000000E9    -2.486680822128589   6.547249004166112E1  
 2.060000000000000E9    -2.537557655337242   6.428552788501341E1  
 2.065000000000000E9    -2.589339830608827   6.305582467969261E1  
 2.070000000000000E9    -2.650785561305146   6.177793669759488E1  
 2.075000000000000E9    -2.721780797598664   6.060998796026767E1  
 2.080000000000000E9    -2.785305741154133   5.947394597301152E1  
 2.085000000000000E9    -2.847390338954329   5.841545357884291E1  
 2.090000000000000E9    -2.890194635302340   5.713799729779842E1  
 2.095000000000000E9    -2.973973955143470   5.590360138732572E1  
 2.100000000000000E9    -3.048394513326717   5.473882665847135E1  
 2.105000000000000E9    -3.118362816597198   5.352631757386794E1  
 2.110000000000000E9    -3.181506276625911   5.224096002460854E1  
 2.115000000000000E9    -3.273884042527942   5.082193722541140E1  
 2.120000000000000E9    -3.377644995997544   4.944219535721597E1  
 2.125000000000000E9    -3.501273529482349   4.810674891128402E1  
 2.130000000000000E9    -3.626220754680685   4.682265812269782E1  
 2.135000000000000E9    -3.762258315132607   4.548172040354633E1  
 2.140000000000000E9    -3.923075011118261   4.427025394830096E1  
 2.145000000000000E9    -4.072374947878715   4.323749830094722E1  
 2.150000000000000E9    -4.214022753095952   4.218076390379352E1  
 2.155000000000000E9    -4.356847531287557   4.100560538187481E1  
 2.160000000000000E9    -4.549769427008906   3.991831053200429E1  
 2.165000000000000E9    -4.721913520161914   3.927615636360555E1  
 2.170000000000000E9    -4.881873081508219   3.852215982080148E1  
 2.175000000000000E9    -5.038234581644447   3.795950028782214E1  
 2.180000000000000E9    -5.186159840681233   3.731105577370347E1  
 2.185000000000000E9    -5.348403155696301   3.706823326847532E1  
 2.190000000000000E9    -5.482170196901792   3.699493609229619E1  
 2.195000000000000E9    -5.541190017874935   3.712721877497651E1  
 2.200000000000000E9    -5.547436888128985   3.710633405657081E1  
 2.205000000000000E9    -5.560962327792056   3.684900159202641E1  
 2.210000000000000E9    -5.527256725245874   3.684266187939796E1  
 2.215000000000000E9    -5.439947583847815   3.656216705036137E1  
 2.220000000000000E9    -5.353051625526812   3.610467754714166E1  
 2.225000000000000E9    -5.188185789056462   3.545232230801198E1  
 2.230000000000000E9    -5.051076906399277   3.431732992368669E1  
 2.235000000000000E9    -4.912690668772073   3.292592464453512E1  
 2.240000000000000E9    -4.787290260313427   3.143077627591726E1  
 2.245000000000000E9    -4.689872362908972   2.961802435585918E1  
 2.250000000000000E9    -4.618781574984989   2.802552173310948E1  
 2.255000000000000E9    -4.489904034946613   2.615944757933533E1  
 2.260000000000000E9    -4.404748747368410   2.389556980504808E1  
 2.265000000000000E9    -4.366580823467154   2.160855994783033E1  
 2.270000000000000E9    -4.333964502955347   1.935431200720315E1  
 2.275000000000000E9    -4.326019635267197   1.693401376851270E1  
 2.280000000000000E9    -4.345248586852356   1.449732971847194E1  
 2.285000000000000E9    -4.376069358297616   1.221479501460940E1  
 2.290000000000000E9    -4.418310807119706   9.611017665115949  
 2.295000000000000E9    -4.519381155854249   7.164306701399218  
 2.300000000000000E9    -4.630940133245692   5.010661499929451  
 2.305000000000000E9    -4.725968354578455   2.763411488029174  
 2.310000000000000E9    -4.864798182412334   7.670469603784236E-1  
 2.315000000000000E9    -4.960194196367408  -1.092852310564443  
 2.320000000000000E9    -5.082942916124608  -3.189478210647969  
 2.325000000000000E9    -5.210713417213369  -4.995074887390922  
 2.330000000000000E9    -5.341005407051340  -6.784264436716615  
 2.335000000000000E9    -5.464797051291253  -8.471810685655624  
 2.340000000000000E9    -5.599174279469395  -1.020205557275450E1  
 2.345000000000000E9    -5.752082987711887  -1.170587348964690E1  
 2.350000000000000E9    -5.863254958645533  -1.302448523965081E1  
 2.355000000000000E9    -5.987083968661666  -1.464448274875930E1  
 2.360000000000000E9    -6.167489602982391  -1.597417965736411E1  
 2.365000000000000E9    -6.295454102570443  -1.686734717245200E1  
 2.370000000000000E9    -6.422095231336798  -1.794698572904281E1  
 2.375000000000000E9    -6.540208456025815  -1.879193419182706E1  
 2.380000000000000E9    -6.666470312229840  -1.939551512919723E1  
 2.385000000000000E9    -6.755457186730101  -2.012875124282661E1  
 2.390000000000000E9    -6.853216809703606  -2.062489384960574E1  
 2.395000000000000E9    -6.922404547385940  -2.076429901009147E1  
 2.400000000000000E9    -6.950672902604040  -2.107224835572466E1  
 2.405000000000000E9    -6.979368326064548  -2.112996843704397E1  
 2.410000000000000E9    -6.955503929074173  -2.117574860507897E1  
 2.415000000000000E9    -6.931685776649718  -2.113066535123430E1  
 2.420000000000000E9    -6.860946508766913  -2.101834944678355E1  
 2.425000000000000E9    -6.753995892473613  -2.085177138266146E1  
 2.430000000000000E9    -6.584305971749743  -2.053088045482435E1  
 2.435000000000000E9    -6.342076446916742  -2.058339221568537E1  
 2.440000000000000E9    -6.115090138152670  -2.114064776962125E1  
 2.445000000000000E9    -5.866130804170999  -2.163594560513901E1  
 2.450000000000000E9    -5.591165825530538  -2.249717491135287E1  
 2.455000000000000E9    -5.329920992742744  -2.355893880463820E1  
 2.460000000000000E9    -5.082010866587028  -2.485730763972356E1  
 2.465000000000000E9    -4.824608934022874  -2.626759881640312E1  
 2.470000000000000E9    -4.581267966551910  -2.787370594582566E1  
 2.475000000000000E9    -4.362862013239131  -2.983294057569873E1  
 2.480000000000000E9    -4.185231812065145  -3.178652665722296E1  
 2.485000000000000E9    -4.043005202265494  -3.380221902318542E1  
 2.490000000000000E9    -3.926160707132862  -3.578245150594279E1  
 2.495000000000000E9    -3.828278114915447  -3.762710279643186E1  
 2.500000000000000E9    -3.734113657496941  -3.958651516284409E1  
 2.505000000000000E9    -3.672224356794609  -4.146246313346020E1  
 2.510000000000000E9    -3.621945085531590  -4.328748559401286E1  
 2.515000000000000E9    -3.580877889975319  -4.498111428562623E1  
 2.520000000000000E9    -3.555197075294449  -4.672074009085039E1  
 2.525000000000000E9    -3.542926631206373  -4.834603933279286E1  
 2.530000000000000E9    -3.547126943417923  -4.993337421378165E1  
 2.535000000000000E9    -3.563671414501320  -5.140270126611013E1  
 2.540000000000000E9    -3.593221932361026  -5.283007118316930E1  
 2.545000000000000E9    -3.644286552961893  -5.409907848779552E1  
 2.550000000000000E9    -3.686078828198923  -5.510487591214300E1  
 2.555000000000000E9    -3.729193088734947  -5.614288191833027E1  
 2.560000000000000E9    -3.776821278531120  -5.699922521001538E1  
 2.565000000000000E9    -3.833025759971110  -5.777160859470681E1  
 2.570000000000000E9    -3.879906108109696  -5.840514712745493E1  
 2.575000000000000E9    -3.928106820642657  -5.888352062518150E1  
 2.580000000000000E9    -3.972899474749131  -5.922116040197142E1  
 2.585000000000000E9    -3.981192643531966  -5.945605000622032E1  
 2.590000000000000E9    -4.008569365677292  -5.969767051500264E1  
 2.595000000000000E9    -4.008893401934607  -5.988129454451396E1  
 2.600000000000000E9    -4.017575464152241  -5.993333857921041E1  
 2.605000000000000E9    -4.003903593678523  -5.988758152799744E1  
 2.610000000000000E9    -3.970781489496555  -5.977117745760641E1  
 2.615000000000000E9    -3.918039951665925  -5.967476318988613E1  
 2.620000000000000E9    -3.833117357228319  -5.960143364156716E1  
 2.625000000000000E9    -3.746822550266264  -5.965398422039699E1  
 2.630000000000000E9    -3.655879438915830  -5.960433573231695E1  
 2.635000000000000E9    -3.525650843027884  -5.969417111710071E1  
 2.640000000000000E9    -3.388327717184025  -5.990092699824609E1  
 2.645000000000000E9    -3.245680021201131  -6.028773057284916E1  
 2.650000000000000E9    -3.110752383376815  -6.073688542244216E1  
 2.655000000000000E9    -2.976008314051148  -6.136972492534299E1  
 2.660000000000000E9    -2.856315809264919  -6.199704803575573E1  
 2.665000000000000E9    -2.734060905945860  -6.257099514809120E1  
 2.670000000000000E9    -2.599154767034857  -6.332303406028438E1  
 2.675000000000000E9    -2.478426200570397  -6.416235675730350E1  
 2.680000000000000E9    -2.357432965591176  -6.505163836915364E1  
 2.685000000000000E9    -2.247170419230188  -6.605056133600711E1  
 2.690000000000000E9    -2.148614764068798  -6.710416144130193E1  
 2.695000000000000E9    -2.072442315341427  -6.820476447063004E1  
 2.700000000000000E9    -2.010883021284394  -6.926886016007873E1  
 2.705000000000000E9    -1.957583910622049  -7.034371307178446E1  
 2.710000000000000E9    -1.915707065634030  -7.134795448238511E1  
 2.715000000000000E9    -1.885811847129304  -7.237842014291400E1  
 2.720000000000000E9    -1.860139709165648  -7.332732719078179E1  
 2.725000000000000E9    -1.839098073382345  -7.429282348040408E1  
 2.730000000000000E9    -1.827462761972539  -7.525041573572594E1  
 2.735000000000000E9    -1.825216214188550  -7.613967274209227E1  
 2.740000000000000E9    -1.825760153116872  -7.704172034141205E1  
 2.745000000000000E9    -1.827648881736953  -7.790189745040088E1  
 2.750000000000000E9    -1.841493936319276  -7.878196374461108E1  
 2.755000000000000E9    -1.866258858911008  -7.962391645153214E1  
 2.760000000000000E9    -1.893128106647477  -8.038438582865555E1  
 2.765000000000000E9    -1.918391898326898  -8.112313103178249E1  
 2.770000000000000E9    -1.950114828183921  -8.186695518160775E1  
 2.775000000000000E9    -1.977731731259709  -8.255673991476550E1  
 2.780000000000000E9    -2.013474483037255  -8.324096526158405E1  
 2.785000000000000E9    -2.042204776401433  -8.386340048205845E1  
 2.790000000000000E9    -2.068396536819639  -8.448450858322326E1  
 2.795000000000000E9    -2.097744855341682  -8.508850836271995E1  
 2.800000000000000E9    -2.116737584492364  -8.561931467524678E1  
 2.805000000000000E9    -2.128855818519462  -8.618430793195169E1  
 2.810000000000000E9    -2.136401619252408  -8.672569674301664E1  
 2.815000000000000E9    -2.135436838331261  -8.722550193366318E1  
 2.820000000000000E9    -2.118065189365157  -8.780784476870298E1  
 2.825000000000000E9    -2.102122640076286  -8.842612220090670E1  
 2.830000000000000E9    -2.082216451138640  -8.903949268153623E1  
 2.835000000000000E9    -2.048500274658593  -8.970415291208104E1  
 2.840000000000000E9    -2.013013313150952  -9.043860341311775E1  
 2.845000000000000E9    -1.978389973226922  -9.120763417221593E1  
 2.850000000000000E9    -1.941567728776286  -9.203134049232176E1  
 2.855000000000000E9    -1.905269816738346  -9.288497667248132E1  
 2.860000000000000E9    -1.877723817702929  -9.383575113205987E1  
 2.865000000000000E9    -1.846261762077855  -9.476406285032601E1  
 2.870000000000000E9    -1.817850148792856  -9.573824901338764E1  
 2.875000000000000E9    -1.795661934421685  -9.677699268471172E1  
 2.880000000000000E9    -1.774463788813792  -9.782175769494305E1  
 2.885000000000000E9    -1.759885889558190  -9.892921335857803E1  
 2.890000000000000E9    -1.755692435057905  -1.000932277626293E2  
 2.895000000000000E9    -1.753998085942401  -1.012353442880954E2  
 2.900000000000000E9    -1.758296002317290  -1.024203850045524E2  
 2.905000000000000E9    -1.760762524907018  -1.036480768565305E2  
 2.910000000000000E9    -1.775312154814667  -1.048754883443904E2  
 2.915000000000000E9    -1.784540768504912  -1.061686867610267E2  
 2.920000000000000E9    -1.803449623433831  -1.074752555197092E2  
 2.925000000000000E9    -1.825267090664035  -1.087785290503730E2  
 2.930000000000000E9    -1.845295969821896  -1.101500389789068E2  
 2.935000000000000E9    -1.866436670053421  -1.115164335446514E2  
 2.940000000000000E9    -1.887871526707542  -1.129334282029935E2  
 2.945000000000000E9    -1.906806776963149  -1.143817824041916E2  
 2.950000000000000E9    -1.933180102712346  -1.158361620949208E2  
 2.955000000000000E9    -1.954179042992216  -1.173342389885066E2  
 2.960000000000000E9    -1.972099985613559  -1.188558027497977E2  
 2.965000000000000E9    -1.999637635434187  -1.203927764525925E2  
 2.970000000000000E9    -2.020082713886462  -1.219259790800429E2  
 2.975000000000000E9    -2.042966681887831  -1.234766441247641E2  
 2.980000000000000E9    -2.062333004544098  -1.250334279033761E2  
 2.985000000000000E9    -2.084575961232379  -1.266128037397209E2  
 2.990000000000000E9    -2.107683186886231  -1.281730083738830E2  
 2.995000000000000E9    -2.125576028468783  -1.297082781751208E2  
 3.000000000000000E9    -2.142449365942214  -1.312964210235028E2  
